Circuit: * C:\Users\DR YESUFU\Desktop\Yesufu Faith ltspice\Draft2.asc

Warning: Multiple definitions of model "mos_m" Type: Mos1
Direct Newton iteration for .op point succeeded.
Semiconductor Device Operating Points:
                        --- Bipolar Transistors ---
Name:       q4          q2          q2b
Model:      npn         npn         npn
Ib:       9.94e-10   -1.79e-12    3.06e+04
Ic:       9.97e-08    6.37e-12    3.06e+06
Vbe:      5.36e-01    2.76e-01    1.34e+00
Vbc:     -4.05e+00   -2.11e+00    0.00e+00
Vce:      4.58e+00    2.38e+00    1.34e+00
BetaDC:   1.00e+02   -3.56e+00    1.00e+02
Gm:       3.85e-06    1.65e-10    1.18e+08
Rpi:      2.59e+07    3.78e+11    8.46e-07
Rx:       0.00e+00    0.00e+00    0.00e+00
Ro:       2.32e+82    6.72e+49    2.59e+14
Cbe:      0.00e+00    0.00e+00    0.00e+00
Cbc:      0.00e+00    0.00e+00    0.00e+00
Cjs:      0.00e+00    0.00e+00    0.00e+00
BetaAC:   1.00e+02    6.22e+01    1.00e+02
Cbx:      0.00e+00    0.00e+00    0.00e+00
Ft:       0.00e+00    0.00e+00    0.00e+00

                        --- MOSFET Transistors ---
Name:          m9          m10         m1          m8          m2
Model:        pmos        pmos        pmos        pmos        nmos
Id:          3.09e+06    1.01e-07   -4.58e-12    5.89e-05    7.99e-05
Vgs:         5.82e-01    5.82e-01    1.82e+01    5.82e-01    4.67e+00
Vds:         1.22e+00    4.17e-01   -2.28e+00    5.82e-01    9.53e-01
Vbs:         0.00e+00    0.00e+00    0.00e+00    0.00e+00    0.00e+00
Vth:        -0.00e+00   -0.00e+00   -0.00e+00   -0.00e+00    0.00e+00
Vdsat:      -6.38e-01   -0.00e+00   -0.00e+00   -0.00e+00    4.67e+00
Gm:          1.28e-05    0.00e+00    0.00e+00    0.00e+00    1.91e-05
Gds:         0.00e+00    0.00e+00    0.00e+00    0.00e+00    7.43e-05
Gmb:         0.00e+00    0.00e+00    0.00e+00    0.00e+00    0.00e+00
Cbd:         0.00e+00    0.00e+00    0.00e+00    0.00e+00    0.00e+00
Cbs:         0.00e+00    0.00e+00    0.00e+00    0.00e+00    0.00e+00
Cgsov:       0.00e+00    0.00e+00    0.00e+00    0.00e+00    0.00e+00
Cgdov:       0.00e+00    0.00e+00    0.00e+00    0.00e+00    0.00e+00
Cgbov:       0.00e+00    0.00e+00    0.00e+00    0.00e+00    0.00e+00
Cgs:         0.00e+00    0.00e+00    0.00e+00    0.00e+00    0.00e+00
Cgd:         0.00e+00    0.00e+00    0.00e+00    0.00e+00    0.00e+00
Cgb:         0.00e+00    0.00e+00    0.00e+00   -0.00e+00    0.00e+00

Name:          m5          m7          m6          m7b         m6b
Model:        nmos        nmos        nmos        nmos        nmos
Id:          7.99e-05   -6.39e-12   -6.37e-12   -3.09e+06   -3.09e+06
Vgs:         2.83e+00   -1.22e+00   -2.27e+00   -1.22e+00   -1.22e+00
Vds:         4.05e+00   -1.66e-01   -1.66e-01   -1.22e+00   -1.22e+00
Vbs:         0.00e+00    0.00e+00    0.00e+00    0.00e+00    0.00e+00
Vth:         0.00e+00    0.00e+00    0.00e+00    0.00e+00    0.00e+00
Vdsat:       2.83e+00    0.00e+00    0.00e+00    0.00e+00    0.00e+00
Gm:          5.65e-05    0.00e+00    0.00e+00    0.00e+00    0.00e+00
Gds:         0.00e+00    0.00e+00    0.00e+00    0.00e+00    0.00e+00
Gmb:         0.00e+00    0.00e+00    0.00e+00    0.00e+00    0.00e+00
Cbd:         0.00e+00    0.00e+00    0.00e+00    0.00e+00    0.00e+00
Cbs:         0.00e+00    0.00e+00    0.00e+00    0.00e+00    0.00e+00
Cgsov:       0.00e+00    0.00e+00    0.00e+00    0.00e+00    0.00e+00
Cgdov:       0.00e+00    0.00e+00    0.00e+00    0.00e+00    0.00e+00
Cgbov:       0.00e+00    0.00e+00    0.00e+00    0.00e+00    0.00e+00
Cgs:         0.00e+00    0.00e+00    0.00e+00    0.00e+00    0.00e+00
Cgd:         0.00e+00    0.00e+00    0.00e+00    0.00e+00    0.00e+00
Cgb:         0.00e+00    0.00e+00    0.00e+00   -0.00e+00   -0.00e+00



Date: Thu Oct 31 07:16:38 2019
Total elapsed time: 0.156 seconds.

tnom = 27
temp = 27
method = trap
totiter = 32
traniter = 0
tranpoints = 0
accept = 0
rejected = 0
matrix size = 16
fillins = 11
solver = Normal
Matrix Compiler1: 1.89 KB object code size
Matrix Compiler2: 1.48 KB object code size
