Circuit: * C:\Users\DR YESUFU\Desktop\Yesufu Faith ltspice\Draft10.asc

Error on line 8 : v1 n002 0 v
	 Unknown parameter "v"
V1: Missing value, assumed 0V @ DC
Direct Newton iteration for .op point succeeded.
Semiconductor Device Operating Points:
                        --- Bipolar Transistors ---
Name:       q1
Model:    2n2222
Ib:      -9.00e-12
Ic:       8.66e-12
Vbe:     -3.46e-01
Vbc:     -8.65e+00
Vce:      8.31e+00
BetaDC:  -9.62e-01
Gm:       6.47e-19
Rpi:      1.00e+12
Rx:       1.00e+01
Ro:       6.49e+21
Cbe:      2.21e-11
Cbc:      3.47e-12
Cjs:      0.00e+00
BetaAC:   6.47e-07
Cbx:      0.00e+00
Ft:       6.23e-03



Date: Sat Oct 19 20:11:50 2019
Total elapsed time: 0.094 seconds.

tnom = 27
temp = 27
method = trap
totiter = 8
traniter = 0
tranpoints = 0
accept = 0
rejected = 0
matrix size = 9
fillins = 2
solver = Normal
Matrix Compiler1: 690 bytes object code size
Matrix Compiler2: 763 bytes object code size
