Circuit: * C:\Users\DR YESUFU\Desktop\Yesufu Faith ltspice\Draft8.asc

Unknown model type "is" -- ignored
R5: both pins shorted together -- ignoring.
Direct Newton iteration for .op point succeeded.
Semiconductor Device Operating Points:
                        --- Bipolar Transistors ---
Name:       q1
Model:      npn
Ib:       9.91e-03
Ic:       4.08e-03
Vbe:      8.56e-01
Vbc:      8.33e-01
Vce:      2.29e-02
BetaDC:   4.12e-01
Gm:       5.32e-01
Rpi:      1.10e+02
Rx:       0.00e+00
Ro:       2.67e+00
Cbe:      0.00e+00
Cbc:      0.00e+00
Cjs:      0.00e+00
BetaAC:   5.87e+01
Cbx:      0.00e+00
Ft:       0.00e+00



Date: Sat Oct 19 19:27:37 2019
Total elapsed time: 0.085 seconds.

tnom = 27
temp = 27
method = trap
totiter = 15
traniter = 0
tranpoints = 0
accept = 0
rejected = 0
matrix size = 7
fillins = 0
solver = Normal
Matrix Compiler1: 178 bytes object code size
Matrix Compiler2: 453 bytes object code size
