Circuit: * C:\Users\DR YESUFU\Desktop\Yesufu Faith ltspice\Draft9.asc

Unknown model type "is" -- ignored
R5: both pins shorted together -- ignoring.
R11: both pins shorted together -- ignoring.
Direct Newton iteration for .op point succeeded.
Semiconductor Device Operating Points:
                        --- Bipolar Transistors ---
Name:       q2          q1
Model:      npn         npn
Ib:       3.80e+12    9.91e-03
Ic:       1.95e-03    4.08e-03
Vbe:      9.00e+00    8.56e-01
Vbc:      5.27e+00    8.33e-01
Vce:      3.73e+00    2.29e-02
BetaDC:   5.14e-16    4.12e-01
Gm:       0.00e+00    5.32e-01
Rpi:      1.00e-10    1.10e+02
Rx:       0.00e+00    0.00e+00
Ro:       1.00e-12    2.67e+00
Cbe:      0.00e+00    0.00e+00
Cbc:      0.00e+00    0.00e+00
Cjs:      0.00e+00    0.00e+00
BetaAC:   0.00e+00    5.87e+01
Cbx:      0.00e+00    0.00e+00
Ft:       0.00e+00    0.00e+00



Date: Sat Oct 19 19:37:39 2019
Total elapsed time: 0.100 seconds.

tnom = 27
temp = 27
method = trap
totiter = 35
traniter = 0
tranpoints = 0
accept = 0
rejected = 0
matrix size = 11
fillins = 0
solver = Normal
Matrix Compiler1: 342 bytes object code size
Matrix Compiler2:      61 opcodes
