Circuit: * C:\Users\DR YESUFU\Desktop\Yesufu Faith ltspice\Draft7.asc

Unknown model type "is" -- ignored
Direct Newton iteration for .op point succeeded.
Semiconductor Device Operating Points:
                        --- Bipolar Transistors ---
Name:       q1
Model:    2n2222
Ib:       1.11e-04
Ic:      -4.40e-04
Vbe:     -8.05e+00
Vbc:      6.28e-01
Vce:     -8.68e+00
BetaDC:  -3.98e+00
Gm:      -1.28e-02
Rpi:      1.00e+12
Rx:       1.00e+01
Ro:       7.80e+01
Cbe:      1.11e-11
Cbc:      1.30e-09
Cjs:      0.00e+00
BetaAC:  -1.28e+10
Cbx:      0.00e+00
Ft:       1.55e+06



Date: Sat Oct 19 18:58:25 2019
Total elapsed time: 0.270 seconds.

tnom = 27
temp = 27
method = trap
totiter = 8
traniter = 0
tranpoints = 0
accept = 0
rejected = 0
matrix size = 11
fillins = 0
solver = Normal
Matrix Compiler1: 502 bytes object code size
Matrix Compiler2: 779 bytes object code size
